
T00C8 000:332 SEGGER J-Link V4.50l Log File (0002ms, 0333ms total)
T00C8 000:332 DLL Compiled: Jul  9 2012 15:02:49 (0002ms, 0333ms total)
T00C8 000:332 Logging started @ 2019-08-10 21:19 (0002ms, 0333ms total)
T00C8 000:334 JLINK_SetWarnOutHandler(...) (0000ms, 0333ms total)
T00C8 000:334 JLINK_OpenEx(...)
Firmware: J-Link ARM V8 compiled Jan 31 2018 18:34:52
Hardware: V8.00
S/N: 20080643
Feature(s): RDI,FlashDL,FlashBP,JFlash,GDBFull  returns O.K. (0018ms, 0351ms total)
T00C8 000:352 JLINK_SetErrorOutHandler(...) (0000ms, 0351ms total)
T00C8 000:352 JLINK_ExecCommand("ProjectFile = "C:\Users\IBM\Desktop\ANO_PioneerPro_Ti\JLinkSettings.ini"", ...)
                JLINK_AddMirrorAreaEx(Addr = 0x00000000, Size = 0x00000000) (0000ms, 0000ms total)
              Device "UNSPECIFIED" selected (0 KB flash, 0 KB RAM).  returns 0x00 (0008ms, 0359ms total)
T00C8 000:376 JLINK_ExecCommand("Device = TM4C123GH6PM", ...)
                JLINK_AddMirrorAreaEx(Addr = 0x00000000, Size = 0x00000000) (0000ms, 0000ms total)
              Device "UNSPECIFIED" selected (0 KB flash, 0 KB RAM).  returns 0x00 (0013ms, 0372ms total)
T00C8 000:389 JLINK_ExecCommand("DisableConnectionTimeout", ...)  returns 0x00 (0000ms, 0372ms total)
T00C8 000:389 JLINK_GetHardwareVersion()  returns 0x13880 (0000ms, 0372ms total)
T00C8 000:389 JLINK_GetDLLVersion()  returns 45012 (0000ms, 0372ms total)
T00C8 000:390 JLINK_GetFirmwareString(...) (0000ms, 0372ms total)
T00C8 000:439 JLINK_GetDLLVersion()  returns 45012 (0000ms, 0372ms total)
T00C8 000:439 JLINK_GetCompileDateTime() (0000ms, 0372ms total)
T00C8 000:444 JLINK_GetFirmwareString(...) (0000ms, 0372ms total)
T00C8 000:451 JLINK_GetHardwareVersion()  returns 0x13880 (0000ms, 0372ms total)
T00C8 000:474 JLINK_TIF_Select(JLINKARM_TIF_SWD)  returns 0x00 (0001ms, 0373ms total)
T00C8 000:475 JLINK_SetSpeed(5000) (0000ms, 0373ms total)
T00C8 000:475 JLINK_GetId() >0x108 TIF>Found SWD-DP with ID 0x2BA01477 >0x0D TIF> >0x21 TIF> >0x0D TIF> >0x28 TIF> >0x0D TIF> >0x28 TIF> >0x0D TIF> >0x21 TIF> >0x0D TIF> >0x21 TIF> >0x0D TIF> >0x28 TIF> >0x0D TIF> >0x21 TIF> >0x0D TIF> >0x21 TIF> >0x0D TIF> >0x21 TIF> >0x0D TIF> >0x21 TIF> >0x0D TIF> >0x28 TIF> >0x0D TIF> >0x21 TIF> >0x0D TIF> >0x28 TIF> >0x0D TIF> >0x28 TIF> >0x0D TIF> >0x21 TIF> >0x0D TIF> >0x21 TIF> >0x0D TIF> >0x28 TIF> >0x0D TIF> >0x21 TIF> >0x0D TIF> >0x21 TIF> >0x0D TIF>
 >0x28 TIF> >0x0D TIF> >0x21 TIF> >0x0D TIF> >0x21 TIF> >0x0D TIF> >0x28 TIF> >0x0D TIF> >0x28 TIF> >0x0D TIF> >0x28 TIF> >0x0D TIF> >0x21 TIF> >0x0D TIF> >0x21 TIF> >0x0D TIF> >0x28 TIF> >0x0D TIF> >0x28 TIF> >0x0D TIF> >0x28 TIF> >0x0D TIF> >0x28 TIF> >0x0D TIF> >0x28 TIF> >0x0D TIF> >0x21 TIF> >0x0D TIF> >0x21 TIF> >0x0D TIF> >0x21 TIF>TPIU fitted.ETM fitted. >0x0D TIF> >0x28 TIF> >0x0D TIF> >0x21 TIF> >0x0D TIF> >0x21 TIF> >0x0D TIF> >0x28 TIF> >0x0D TIF> >0x21 TIF> >0x0D TIF> >0x21 TIF>
FPUnit: 6 code (BP) slots and 2 literal slots >0x0D TIF> >0x28 TIF> >0x0D TIF> >0x21 TIF> >0x0D TIF> >0x21 TIF> >0x0D TIF> >0x28 TIF> >0x0D TIF> >0x28 TIF> >0x0D TIF> >0x28 TIF> >0x0D TIF> >0x21 TIF> >0x0D TIF> >0x21 TIF> >0x0D TIF> >0x28 TIF> >0x0D TIF> >0x21 TIF> >0x0D TIF> >0x21 TIF> >0x0D TIF> >0x28 TIF> >0x0D TIF> >0x21 TIF> >0x0D TIF> >0x21 TIF>Found Cortex-M4 r0p1, Little endian. >0x0D TIF> >0x28 TIF> >0x0D TIF> >0x21 TIF>  returns 0x2BA01477 (0057ms, 0430ms total)
T00C8 000:532 JLINK_GetDLLVersion()  returns 45012 (0000ms, 0430ms total)
T00C8 000:532 JLINK_CORE_GetFound()  returns 0xE0000FF (0000ms, 0430ms total)
T00C8 000:538 JLINK_GetDebugInfo(0x100) -- Value=0xE00FF003  returns 0x00 (0000ms, 0430ms total)
T00C8 000:538 JLINK_GetDebugInfo(0x101)  returns 0xFFFFFFFF (0000ms, 0430ms total)
T00C8 000:538 JLINK_ReadMem (0xE0041FF0, 0x0010 Bytes, ...) -- CPU is running -- CPU_ReadMem(16 bytes @ 0xE0041FF0) -- Data:  0D 00 00 00 90 00 00 00 05 00 00 00 B1 00 00 00  returns 0x00 (0001ms, 0431ms total)
T00C8 000:539 JLINK_GetDebugInfo(0x102)  returns 0xFFFFFFFF (0000ms, 0431ms total)
T00C8 000:539 JLINK_GetDebugInfo(0x103)  returns 0xFFFFFFFF (0000ms, 0431ms total)
T00C8 000:539 JLINK_ReadMem (0xE0040FF0, 0x0010 Bytes, ...) -- CPU is running -- CPU_ReadMem(16 bytes @ 0xE0040FF0) -- Data:  0D 00 00 00 90 00 00 00 05 00 00 00 B1 00 00 00  returns 0x00 (0000ms, 0431ms total)
T00C8 000:539 JLINK_GetDebugInfo(0x104)  returns 0xFFFFFFFF (0000ms, 0431ms total)
T00C8 000:539 JLINK_GetDebugInfo(0x105)  returns 0xFFFFFFFF (0000ms, 0431ms total)
T00C8 000:539 JLINK_GetDebugInfo(0x106)  returns 0xFFFFFFFF (0000ms, 0431ms total)
T00C8 000:539 JLINK_GetDebugInfo(0x107)  returns 0xFFFFFFFF (0001ms, 0432ms total)
T00C8 000:540 JLINK_GetDebugInfo(0x10C)  returns 0xFFFFFFFF (0000ms, 0432ms total)
T00C8 000:540 JLINK_ReadMemU32(0xE000EF40, 0x0001 Items, ...) -- CPU is running -- CPU_ReadMem(4 bytes @ 0xE000EF40) -- Data:  21 00 11 10  returns 0x01 (0000ms, 0432ms total)
T00C8 000:540 JLINK_ReadMemU32(0xE000EF44, 0x0001 Items, ...) -- CPU is running -- CPU_ReadMem(4 bytes @ 0xE000EF44) -- Data:  11 00 00 11  returns 0x01 (0000ms, 0432ms total)
T00C8 000:540 JLINK_ReadMemU32(0xE000ED00, 0x0001 Items, ...) -- CPU is running -- CPU_ReadMem(4 bytes @ 0xE000ED00) -- Data:  41 C2 0F 41  returns 0x01 (0001ms, 0433ms total)
T00C8 000:541 JLINK_SetResetType(JLINKARM_RESET_TYPE_NORMAL)  returns JLINKARM_RESET_TYPE_NORMAL (0000ms, 0433ms total)
T00C8 000:541 JLINK_Reset() -- CPU_WriteMem(4 bytes @ 0xE0002000) (0010ms, 0443ms total)
T00C8 000:552 JLINK_Halt()  returns 0x00 (0000ms, 0443ms total)
T00C8 000:552 JLINK_IsHalted()  returns TRUE (0000ms, 0443ms total)
T00C8 000:552 JLINK_ReadMemU32(0xE000EDF0, 0x0001 Items, ...) -- CPU_ReadMem(4 bytes @ 0xE000EDF0) -- Data:  03 00 03 00  returns 0x01 (0000ms, 0443ms total)
T00C8 000:552 JLINK_WriteU32(0xE000EDF0, 0xA05F0003) -- CPU_WriteMem(4 bytes @ 0xE000EDF0)  returns 0x00 (0001ms, 0444ms total)
T00C8 000:553 JLINK_WriteU32(0xE000EDFC, 0x01000000) -- CPU_WriteMem(4 bytes @ 0xE000EDFC)  returns 0x00 (0000ms, 0444ms total)
T00C8 000:576 JLINK_GetHWStatus(...)  returns 0x00 (0000ms, 0444ms total)
T00C8 000:592 JLINK_GetNumBPUnits(Type = 0xFFFFFF00)  returns 0x06 (0000ms, 0444ms total)
T00C8 000:592 JLINK_GetNumBPUnits(Type = 0xF0)  returns 0x2000 (0000ms, 0444ms total)
T00C8 000:592 JLINK_GetNumWPUnits()  returns 0x04 (0000ms, 0444ms total)
T00C8 000:609 JLINK_GetSpeed()  returns 0xFA0 (0000ms, 0444ms total)
T00C8 000:619 JLINK_ReadMemU32(0xE000E004, 0x0001 Items, ...) -- CPU_ReadMem(4 bytes @ 0xE000E004) -- Data:  04 00 00 00  returns 0x01 (0000ms, 0444ms total)
T00C8 000:619 JLINK_ReadMemU32(0xE000E004, 0x0001 Items, ...) -- CPU_ReadMem(4 bytes @ 0xE000E004) -- Data:  04 00 00 00  returns 0x01 (0001ms, 0445ms total)
T00C8 000:620 JLINK_WriteMem(0xE0001000, 0x001C Bytes, ...) -- Data:  01 00 00 00 00 00 00 00 00 00 00 00 00 00 00 00 ... -- CPU_WriteMem(28 bytes @ 0xE0001000)  returns 0x1C (0001ms, 0446ms total)
T00C8 000:621 JLINK_ReadMem (0xE0001000, 0x001C Bytes, ...) -- CPU_ReadMem(28 bytes @ 0xE0001000) -- Data:  01 00 00 40 00 00 00 00 00 00 00 00 00 00 00 00 ...  returns 0x00 (0000ms, 0446ms total)
T00C8 000:621 JLINK_Halt()  returns 0x00 (0000ms, 0446ms total)
T00C8 000:621 JLINK_IsHalted()  returns TRUE (0000ms, 0446ms total)
T00C8 000:628 JLINK_WriteMem(0x20000000, 0x0128 Bytes, ...) -- Data:  00 BE 0A E0 0D 78 2D 06 68 40 08 24 40 00 00 D3 ... -- CPU_WriteMem(296 bytes @ 0x20000000)  returns 0x128 (0002ms, 0448ms total)
T00C8 000:630 JLINK_WriteReg(R0, 0x00000000)  returns 0x00 (0000ms, 0448ms total)
T00C8 000:630 JLINK_WriteReg(R1, 0x00F42400)  returns 0x00 (0000ms, 0448ms total)
T00C8 000:630 JLINK_WriteReg(R2, 0x00000001)  returns 0x00 (0000ms, 0448ms total)
T00C8 000:630 JLINK_WriteReg(R3, 0x00000000)  returns 0x00 (0000ms, 0448ms total)
T00C8 000:630 JLINK_WriteReg(R4, 0x00000000)  returns 0x00 (0000ms, 0448ms total)
T00C8 000:630 JLINK_WriteReg(R5, 0x00000000)  returns 0x00 (0000ms, 0448ms total)
T00C8 000:630 JLINK_WriteReg(R6, 0x00000000)  returns 0x00 (0000ms, 0448ms total)
T00C8 000:630 JLINK_WriteReg(R7, 0x00000000)  returns 0x00 (0000ms, 0448ms total)
T00C8 000:630 JLINK_WriteReg(R8, 0x00000000)  returns 0x00 (0000ms, 0448ms total)
T00C8 000:630 JLINK_WriteReg(R9, 0x20000124)  returns 0x00 (0000ms, 0448ms total)
T00C8 000:630 JLINK_WriteReg(R10, 0x00000000)  returns 0x00 (0000ms, 0448ms total)
T00C8 000:631 JLINK_WriteReg(R11, 0x00000000)  returns 0x00 (0000ms, 0449ms total)
T00C8 000:631 JLINK_WriteReg(R12, 0x00000000)  returns 0x00 (0000ms, 0449ms total)
T00C8 000:631 JLINK_WriteReg(R13, 0x20001000)  returns 0x00 (0000ms, 0449ms total)
T00C8 000:631 JLINK_WriteReg(R14, 0x20000001)  returns 0x00 (0000ms, 0449ms total)
T00C8 000:631 JLINK_WriteReg(R15, 0x20000038)  returns 0x00 (0000ms, 0449ms total)
T00C8 000:631 JLINK_WriteReg(XPSR, 0x01000000)  returns 0x00 (0000ms, 0449ms total)
T00C8 000:631 JLINK_WriteReg(MSP, 0x20001000)  returns 0x00 (0000ms, 0449ms total)
T00C8 000:631 JLINK_WriteReg(PSP, 0x20001000)  returns 0x00 (0000ms, 0449ms total)
T00C8 000:631 JLINK_WriteReg(CFBP, 0x00000000)  returns 0x00 (0000ms, 0449ms total)
T00C8 000:631 JLINK_SetBPEx(Addr = 0x20000000, Type = 0xFFFFFFF2) -- CPU_ReadMem(4 bytes @ 0x20000000) -- CPU_WriteMem(4 bytes @ 0x20000000) -- CPU_ReadMem(4 bytes @ 0x20000000) -- CPU_WriteMem(4 bytes @ 0x20000000) -- CPU_ReadMem(2 bytes @ 0x20000000)  returns 0x00000001 (0002ms, 0451ms total)
T00C8 000:633 JLINK_Go() -- CPU_WriteMem(2 bytes @ 0x20000000) -- CPU_WriteMem(4 bytes @ 0xE0002008) -- CPU_WriteMem(4 bytes @ 0xE000200C) -- CPU_WriteMem(4 bytes @ 0xE0002010) -- CPU_WriteMem(4 bytes @ 0xE0002014) -- CPU_WriteMem(4 bytes @ 0xE0002018) -- CPU_WriteMem(4 bytes @ 0xE000201C) (0004ms, 0455ms total)
T00C8 000:637 JLINK_IsHalted() -- CPU_ReadMem(2 bytes @ 0x20000000)  returns TRUE (0003ms, 0458ms total)
T00C8 000:640 JLINK_ReadReg(R15)  returns 0x20000000 (0000ms, 0455ms total)
T00C8 000:640 JLINK_ClrBPEx(BPHandle = 0x00000001)  returns 0x00 (0000ms, 0455ms total)
T00C8 000:640 JLINK_ReadReg(R0)  returns 0x00000000 (0000ms, 0455ms total)
T00C8 000:641 JLINK_WriteReg(R0, 0x00000000)  returns 0x00 (0000ms, 0455ms total)
T00C8 000:641 JLINK_WriteReg(R1, 0x00000400)  returns 0x00 (0001ms, 0456ms total)
T00C8 000:642 JLINK_WriteReg(R2, 0x000000FF)  returns 0x00 (0000ms, 0456ms total)
T00C8 000:642 JLINK_WriteReg(R3, 0x00000000)  returns 0x00 (0000ms, 0456ms total)
T00C8 000:642 JLINK_WriteReg(R4, 0x00000000)  returns 0x00 (0000ms, 0456ms total)
T00C8 000:642 JLINK_WriteReg(R5, 0x00000000)  returns 0x00 (0000ms, 0456ms total)
T00C8 000:642 JLINK_WriteReg(R6, 0x00000000)  returns 0x00 (0000ms, 0456ms total)
T00C8 000:642 JLINK_WriteReg(R7, 0x00000000)  returns 0x00 (0000ms, 0456ms total)
T00C8 000:642 JLINK_WriteReg(R8, 0x00000000)  returns 0x00 (0000ms, 0456ms total)
T00C8 000:642 JLINK_WriteReg(R9, 0x20000124)  returns 0x00 (0000ms, 0456ms total)
T00C8 000:642 JLINK_WriteReg(R10, 0x00000000)  returns 0x00 (0000ms, 0456ms total)
T00C8 000:642 JLINK_WriteReg(R11, 0x00000000)  returns 0x00 (0000ms, 0456ms total)
T00C8 000:642 JLINK_WriteReg(R12, 0x00000000)  returns 0x00 (0000ms, 0456ms total)
T00C8 000:642 JLINK_WriteReg(R13, 0x20001000)  returns 0x00 (0000ms, 0456ms total)
T00C8 000:642 JLINK_WriteReg(R14, 0x20000001)  returns 0x00 (0000ms, 0456ms total)
T00C8 000:642 JLINK_WriteReg(R15, 0x20000020)  returns 0x00 (0000ms, 0456ms total)
T00C8 000:642 JLINK_WriteReg(XPSR, 0x01000000)  returns 0x00 (0000ms, 0456ms total)
T00C8 000:642 JLINK_WriteReg(MSP, 0x20001000)  returns 0x00 (0000ms, 0456ms total)
T00C8 000:642 JLINK_WriteReg(PSP, 0x20001000)  returns 0x00 (0000ms, 0456ms total)
T00C8 000:642 JLINK_WriteReg(CFBP, 0x00000000)  returns 0x00 (0000ms, 0456ms total)
T00C8 000:642 JLINK_SetBPEx(Addr = 0x20000000, Type = 0xFFFFFFF2)  returns 0x00000002 (0000ms, 0456ms total)
T00C8 000:642 JLINK_Go() -- CPU_WriteMem(4 bytes @ 0xE0002008) -- CPU_WriteMem(4 bytes @ 0xE000200C) -- CPU_WriteMem(4 bytes @ 0xE0002010) -- CPU_WriteMem(4 bytes @ 0xE0002014) -- CPU_WriteMem(4 bytes @ 0xE0002018) -- CPU_WriteMem(4 bytes @ 0xE000201C) (0004ms, 0460ms total)
T00C8 000:646 JLINK_IsHalted() -- CPU_ReadMem(2 bytes @ 0x20000000)  returns TRUE (0003ms, 0463ms total)
T00C8 000:649 JLINK_ReadReg(R15)  returns 0x20000000 (0000ms, 0460ms total)
T00C8 000:649 JLINK_ClrBPEx(BPHandle = 0x00000002)  returns 0x00 (0000ms, 0460ms total)
T00C8 000:649 JLINK_ReadReg(R0)  returns 0x00000001 (0000ms, 0460ms total)
T00C8 000:649 JLINK_WriteReg(R0, 0x00000000)  returns 0x00 (0000ms, 0460ms total)
T00C8 000:649 JLINK_WriteReg(R1, 0x00000400)  returns 0x00 (0000ms, 0460ms total)
T00C8 000:649 JLINK_WriteReg(R2, 0x000000FF)  returns 0x00 (0000ms, 0460ms total)
T00C8 000:649 JLINK_WriteReg(R3, 0x00000000)  returns 0x00 (0000ms, 0460ms total)
T00C8 000:649 JLINK_WriteReg(R4, 0x00000000)  returns 0x00 (0000ms, 0460ms total)
T00C8 000:649 JLINK_WriteReg(R5, 0x00000000)  returns 0x00 (0000ms, 0460ms total)
T00C8 000:649 JLINK_WriteReg(R6, 0x00000000)  returns 0x00 (0000ms, 0460ms total)
T00C8 000:649 JLINK_WriteReg(R7, 0x00000000)  returns 0x00 (0000ms, 0460ms total)
T00C8 000:649 JLINK_WriteReg(R8, 0x00000000)  returns 0x00 (0000ms, 0460ms total)
T00C8 000:649 JLINK_WriteReg(R9, 0x20000124)  returns 0x00 (0000ms, 0460ms total)
T00C8 000:649 JLINK_WriteReg(R10, 0x00000000)  returns 0x00 (0000ms, 0460ms total)
T00C8 000:649 JLINK_WriteReg(R11, 0x00000000)  returns 0x00 (0000ms, 0460ms total)
T00C8 000:649 JLINK_WriteReg(R12, 0x00000000)  returns 0x00 (0000ms, 0460ms total)
T00C8 000:649 JLINK_WriteReg(R13, 0x20001000)  returns 0x00 (0000ms, 0460ms total)
T00C8 000:649 JLINK_WriteReg(R14, 0x20000001)  returns 0x00 (0000ms, 0460ms total)
T00C8 000:649 JLINK_WriteReg(R15, 0x20000070)  returns 0x00 (0000ms, 0460ms total)
T00C8 000:649 JLINK_WriteReg(XPSR, 0x01000000)  returns 0x00 (0001ms, 0461ms total)
T00C8 000:650 JLINK_WriteReg(MSP, 0x20001000)  returns 0x00 (0000ms, 0461ms total)
T00C8 000:650 JLINK_WriteReg(PSP, 0x20001000)  returns 0x00 (0000ms, 0461ms total)
T00C8 000:650 JLINK_WriteReg(CFBP, 0x00000000)  returns 0x00 (0000ms, 0461ms total)
T00C8 000:650 JLINK_SetBPEx(Addr = 0x20000000, Type = 0xFFFFFFF2)  returns 0x00000003 (0000ms, 0461ms total)
T00C8 000:650 JLINK_Go() -- CPU_WriteMem(4 bytes @ 0xE0002008) -- CPU_WriteMem(4 bytes @ 0xE000200C) -- CPU_WriteMem(4 bytes @ 0xE0002010) -- CPU_WriteMem(4 bytes @ 0xE0002014) -- CPU_WriteMem(4 bytes @ 0xE0002018) -- CPU_WriteMem(4 bytes @ 0xE000201C) (0003ms, 0464ms total)
T00C8 000:653 JLINK_IsHalted()  returns FALSE (0000ms, 0464ms total)
T00C8 000:763 JLINK_IsHalted() -- CPU_ReadMem(2 bytes @ 0x20000000)  returns TRUE (0003ms, 0467ms total)
T00C8 000:766 JLINK_ReadReg(R15)  returns 0x20000000 (0000ms, 0464ms total)
T00C8 000:766 JLINK_ClrBPEx(BPHandle = 0x00000003)  returns 0x00 (0000ms, 0464ms total)
T00C8 000:766 JLINK_ReadReg(R0)  returns 0x00000000 (0000ms, 0464ms total)
T00C8 000:767 JLINK_WriteReg(R0, 0x00000400)  returns 0x00 (0000ms, 0464ms total)
T00C8 000:767 JLINK_WriteReg(R1, 0x00000400)  returns 0x00 (0000ms, 0464ms total)
T00C8 000:767 JLINK_WriteReg(R2, 0x000000FF)  returns 0x00 (0000ms, 0464ms total)
T00C8 000:767 JLINK_WriteReg(R3, 0x00000000)  returns 0x00 (0000ms, 0464ms total)
T00C8 000:767 JLINK_WriteReg(R4, 0x00000000)  returns 0x00 (0000ms, 0464ms total)
T00C8 000:767 JLINK_WriteReg(R5, 0x00000000)  returns 0x00 (0000ms, 0464ms total)
T00C8 000:767 JLINK_WriteReg(R6, 0x00000000)  returns 0x00 (0000ms, 0464ms total)
T00C8 000:767 JLINK_WriteReg(R7, 0x00000000)  returns 0x00 (0000ms, 0464ms total)
T00C8 000:767 JLINK_WriteReg(R8, 0x00000000)  returns 0x00 (0000ms, 0464ms total)
T00C8 000:768 JLINK_WriteReg(R9, 0x20000124)  returns 0x00 (0000ms, 0464ms total)
T00C8 000:768 JLINK_WriteReg(R10, 0x00000000)  returns 0x00 (0000ms, 0464ms total)
T00C8 000:768 JLINK_WriteReg(R11, 0x00000000)  returns 0x00 (0000ms, 0464ms total)
T00C8 000:768 JLINK_WriteReg(R12, 0x00000000)  returns 0x00 (0000ms, 0464ms total)
T00C8 000:768 JLINK_WriteReg(R13, 0x20001000)  returns 0x00 (0000ms, 0464ms total)
T00C8 000:768 JLINK_WriteReg(R14, 0x20000001)  returns 0x00 (0000ms, 0464ms total)
T00C8 000:768 JLINK_WriteReg(R15, 0x20000020)  returns 0x00 (0000ms, 0464ms total)
T00C8 000:768 JLINK_WriteReg(XPSR, 0x01000000)  returns 0x00 (0000ms, 0464ms total)
T00C8 000:768 JLINK_WriteReg(MSP, 0x20001000)  returns 0x00 (0000ms, 0464ms total)
T00C8 000:768 JLINK_WriteReg(PSP, 0x20001000)  returns 0x00 (0000ms, 0464ms total)
T00C8 000:768 JLINK_WriteReg(CFBP, 0x00000000)  returns 0x00 (0000ms, 0464ms total)
T00C8 000:768 JLINK_SetBPEx(Addr = 0x20000000, Type = 0xFFFFFFF2)  returns 0x00000004 (0000ms, 0464ms total)
T00C8 000:768 JLINK_Go() -- CPU_WriteMem(4 bytes @ 0xE0002008) -- CPU_WriteMem(4 bytes @ 0xE000200C) -- CPU_WriteMem(4 bytes @ 0xE0002010) -- CPU_WriteMem(4 bytes @ 0xE0002014) -- CPU_WriteMem(4 bytes @ 0xE0002018) -- CPU_WriteMem(4 bytes @ 0xE000201C) (0003ms, 0467ms total)
T00C8 000:771 JLINK_IsHalted() -- CPU_ReadMem(2 bytes @ 0x20000000)  returns TRUE (0003ms, 0470ms total)
T00C8 000:774 JLINK_ReadReg(R15)  returns 0x20000000 (0000ms, 0467ms total)
T00C8 000:774 JLINK_ClrBPEx(BPHandle = 0x00000004)  returns 0x00 (0000ms, 0467ms total)
T00C8 000:774 JLINK_ReadReg(R0)  returns 0x00000001 (0000ms, 0467ms total)
T00C8 000:774 JLINK_WriteReg(R0, 0x00000400)  returns 0x00 (0000ms, 0467ms total)
T00C8 000:774 JLINK_WriteReg(R1, 0x00000400)  returns 0x00 (0000ms, 0467ms total)
T00C8 000:775 JLINK_WriteReg(R2, 0x000000FF)  returns 0x00 (0000ms, 0468ms total)
T00C8 000:775 JLINK_WriteReg(R3, 0x00000000)  returns 0x00 (0000ms, 0468ms total)
T00C8 000:775 JLINK_WriteReg(R4, 0x00000000)  returns 0x00 (0000ms, 0468ms total)
T00C8 000:775 JLINK_WriteReg(R5, 0x00000000)  returns 0x00 (0000ms, 0468ms total)
T00C8 000:775 JLINK_WriteReg(R6, 0x00000000)  returns 0x00 (0000ms, 0468ms total)
T00C8 000:775 JLINK_WriteReg(R7, 0x00000000)  returns 0x00 (0000ms, 0468ms total)
T00C8 000:775 JLINK_WriteReg(R8, 0x00000000)  returns 0x00 (0000ms, 0468ms total)
T00C8 000:775 JLINK_WriteReg(R9, 0x20000124)  returns 0x00 (0000ms, 0468ms total)
T00C8 000:775 JLINK_WriteReg(R10, 0x00000000)  returns 0x00 (0000ms, 0468ms total)
T00C8 000:775 JLINK_WriteReg(R11, 0x00000000)  returns 0x00 (0000ms, 0468ms total)
T00C8 000:775 JLINK_WriteReg(R12, 0x00000000)  returns 0x00 (0000ms, 0468ms total)
T00C8 000:775 JLINK_WriteReg(R13, 0x20001000)  returns 0x00 (0000ms, 0468ms total)
T00C8 000:775 JLINK_WriteReg(R14, 0x20000001)  returns 0x00 (0000ms, 0468ms total)
T00C8 000:775 JLINK_WriteReg(R15, 0x20000070)  returns 0x00 (0000ms, 0468ms total)
T00C8 000:775 JLINK_WriteReg(XPSR, 0x01000000)  returns 0x00 (0000ms, 0468ms total)
T00C8 000:775 JLINK_WriteReg(MSP, 0x20001000)  returns 0x00 (0000ms, 0468ms total)
T00C8 000:775 JLINK_WriteReg(PSP, 0x20001000)  returns 0x00 (0000ms, 0468ms total)
T00C8 000:775 JLINK_WriteReg(CFBP, 0x00000000)  returns 0x00 (0000ms, 0468ms total)
T00C8 000:775 JLINK_SetBPEx(Addr = 0x20000000, Type = 0xFFFFFFF2)  returns 0x00000005 (0000ms, 0468ms total)
T00C8 000:775 JLINK_Go() -- CPU_WriteMem(4 bytes @ 0xE0002008) -- CPU_WriteMem(4 bytes @ 0xE000200C) -- CPU_WriteMem(4 bytes @ 0xE0002010) -- CPU_WriteMem(4 bytes @ 0xE0002014) -- CPU_WriteMem(4 bytes @ 0xE0002018) -- CPU_WriteMem(4 bytes @ 0xE000201C) (0003ms, 0471ms total)
T00C8 000:778 JLINK_IsHalted()  returns FALSE (0000ms, 0471ms total)
T00C8 000:780 JLINK_IsHalted()  returns FALSE (0000ms, 0471ms total)
T00C8 000:783 JLINK_IsHalted()  returns FALSE (0000ms, 0471ms total)
T00C8 000:785 JLINK_IsHalted() -- CPU_ReadMem(2 bytes @ 0x20000000)  returns TRUE (0003ms, 0474ms total)
T00C8 000:788 JLINK_ReadReg(R15)  returns 0x20000000 (0000ms, 0471ms total)
T00C8 000:788 JLINK_ClrBPEx(BPHandle = 0x00000005)  returns 0x00 (0000ms, 0471ms total)
T00C8 000:788 JLINK_ReadReg(R0)  returns 0x00000000 (0000ms, 0471ms total)
T00C8 000:789 JLINK_WriteReg(R0, 0x00000800)  returns 0x00 (0000ms, 0471ms total)
T00C8 000:789 JLINK_WriteReg(R1, 0x00000400)  returns 0x00 (0000ms, 0471ms total)
T00C8 000:789 JLINK_WriteReg(R2, 0x000000FF)  returns 0x00 (0000ms, 0471ms total)
T00C8 000:789 JLINK_WriteReg(R3, 0x00000000)  returns 0x00 (0000ms, 0471ms total)
T00C8 000:789 JLINK_WriteReg(R4, 0x00000000)  returns 0x00 (0000ms, 0471ms total)
T00C8 000:789 JLINK_WriteReg(R5, 0x00000000)  returns 0x00 (0000ms, 0471ms total)
T00C8 000:789 JLINK_WriteReg(R6, 0x00000000)  returns 0x00 (0000ms, 0471ms total)
T00C8 000:789 JLINK_WriteReg(R7, 0x00000000)  returns 0x00 (0000ms, 0471ms total)
T00C8 000:789 JLINK_WriteReg(R8, 0x00000000)  returns 0x00 (0000ms, 0471ms total)
T00C8 000:789 JLINK_WriteReg(R9, 0x20000124)  returns 0x00 (0000ms, 0471ms total)
T00C8 000:789 JLINK_WriteReg(R10, 0x00000000)  returns 0x00 (0000ms, 0471ms total)
T00C8 000:789 JLINK_WriteReg(R11, 0x00000000)  returns 0x00 (0000ms, 0471ms total)
T00C8 000:789 JLINK_WriteReg(R12, 0x00000000)  returns 0x00 (0000ms, 0471ms total)
T00C8 000:789 JLINK_WriteReg(R13, 0x20001000)  returns 0x00 (0000ms, 0471ms total)
T00C8 000:789 JLINK_WriteReg(R14, 0x20000001)  returns 0x00 (0000ms, 0471ms total)
T00C8 000:789 JLINK_WriteReg(R15, 0x20000020)  returns 0x00 (0000ms, 0471ms total)
T00C8 000:789 JLINK_WriteReg(XPSR, 0x01000000)  returns 0x00 (0000ms, 0471ms total)
T00C8 000:789 JLINK_WriteReg(MSP, 0x20001000)  returns 0x00 (0000ms, 0471ms total)
T00C8 000:789 JLINK_WriteReg(PSP, 0x20001000)  returns 0x00 (0000ms, 0471ms total)
T00C8 000:789 JLINK_WriteReg(CFBP, 0x00000000)  returns 0x00 (0000ms, 0471ms total)
T00C8 000:789 JLINK_SetBPEx(Addr = 0x20000000, Type = 0xFFFFFFF2)  returns 0x00000006 (0000ms, 0471ms total)
T00C8 000:789 JLINK_Go() -- CPU_WriteMem(4 bytes @ 0xE0002008) -- CPU_WriteMem(4 bytes @ 0xE000200C) -- CPU_WriteMem(4 bytes @ 0xE0002010) -- CPU_WriteMem(4 bytes @ 0xE0002014) -- CPU_WriteMem(4 bytes @ 0xE0002018) -- CPU_WriteMem(4 bytes @ 0xE000201C) (0003ms, 0474ms total)
T00C8 000:792 JLINK_IsHalted() -- CPU_ReadMem(2 bytes @ 0x20000000)  returns TRUE (0004ms, 0478ms total)
T00C8 000:796 JLINK_ReadReg(R15)  returns 0x20000000 (0000ms, 0474ms total)
T00C8 000:796 JLINK_ClrBPEx(BPHandle = 0x00000006)  returns 0x00 (0000ms, 0474ms total)
T00C8 000:796 JLINK_ReadReg(R0)  returns 0x00000001 (0000ms, 0474ms total)
T00C8 000:796 JLINK_WriteReg(R0, 0x00000800)  returns 0x00 (0000ms, 0474ms total)
T00C8 000:796 JLINK_WriteReg(R1, 0x00000400)  returns 0x00 (0000ms, 0474ms total)
T00C8 000:796 JLINK_WriteReg(R2, 0x000000FF)  returns 0x00 (0000ms, 0474ms total)
T00C8 000:796 JLINK_WriteReg(R3, 0x00000000)  returns 0x00 (0000ms, 0474ms total)
T00C8 000:796 JLINK_WriteReg(R4, 0x00000000)  returns 0x00 (0000ms, 0474ms total)
T00C8 000:796 JLINK_WriteReg(R5, 0x00000000)  returns 0x00 (0000ms, 0474ms total)
T00C8 000:796 JLINK_WriteReg(R6, 0x00000000)  returns 0x00 (0000ms, 0474ms total)
T00C8 000:796 JLINK_WriteReg(R7, 0x00000000)  returns 0x00 (0000ms, 0474ms total)
T00C8 000:796 JLINK_WriteReg(R8, 0x00000000)  returns 0x00 (0000ms, 0474ms total)
T00C8 000:796 JLINK_WriteReg(R9, 0x20000124)  returns 0x00 (0000ms, 0474ms total)
T00C8 000:796 JLINK_WriteReg(R10, 0x00000000)  returns 0x00 (0000ms, 0474ms total)
T00C8 000:796 JLINK_WriteReg(R11, 0x00000000)  returns 0x00 (0000ms, 0474ms total)
T00C8 000:796 JLINK_WriteReg(R12, 0x00000000)  returns 0x00 (0000ms, 0474ms total)
T00C8 000:796 JLINK_WriteReg(R13, 0x20001000)  returns 0x00 (0000ms, 0474ms total)
T00C8 000:796 JLINK_WriteReg(R14, 0x20000001)  returns 0x00 (0000ms, 0474ms total)
T00C8 000:796 JLINK_WriteReg(R15, 0x20000070)  returns 0x00 (0000ms, 0474ms total)
T00C8 000:796 JLINK_WriteReg(XPSR, 0x01000000)  returns 0x00 (0000ms, 0474ms total)
T00C8 000:796 JLINK_WriteReg(MSP, 0x20001000)  returns 0x00 (0000ms, 0474ms total)
T00C8 000:796 JLINK_WriteReg(PSP, 0x20001000)  returns 0x00 (0000ms, 0474ms total)
T00C8 000:796 JLINK_WriteReg(CFBP, 0x00000000)  returns 0x00 (0000ms, 0474ms total)
T00C8 000:796 JLINK_SetBPEx(Addr = 0x20000000, Type = 0xFFFFFFF2)  returns 0x00000007 (0000ms, 0474ms total)
T00C8 000:796 JLINK_Go() -- CPU_WriteMem(4 bytes @ 0xE0002008) -- CPU_WriteMem(4 bytes @ 0xE000200C) -- CPU_WriteMem(4 bytes @ 0xE0002010) -- CPU_WriteMem(4 bytes @ 0xE0002014) -- CPU_WriteMem(4 bytes @ 0xE0002018) -- CPU_WriteMem(4 bytes @ 0xE000201C) (0004ms, 0478ms total)
T00C8 000:800 JLINK_IsHalted()  returns FALSE (0000ms, 0478ms total)
T00C8 000:802 JLINK_IsHalted()  returns FALSE (0000ms, 0478ms total)
T00C8 000:804 JLINK_IsHalted()  returns FALSE (0000ms, 0478ms total)
T00C8 000:806 JLINK_IsHalted() -- CPU_ReadMem(2 bytes @ 0x20000000)  returns TRUE (0003ms, 0481ms total)
T00C8 000:809 JLINK_ReadReg(R15)  returns 0x20000000 (0000ms, 0478ms total)
T00C8 000:809 JLINK_ClrBPEx(BPHandle = 0x00000007)  returns 0x00 (0000ms, 0478ms total)
T00C8 000:809 JLINK_ReadReg(R0)  returns 0x00000000 (0000ms, 0478ms total)
T00C8 000:810 JLINK_WriteReg(R0, 0x00000C00)  returns 0x00 (0000ms, 0478ms total)
T00C8 000:810 JLINK_WriteReg(R1, 0x00000400)  returns 0x00 (0000ms, 0478ms total)
T00C8 000:810 JLINK_WriteReg(R2, 0x000000FF)  returns 0x00 (0000ms, 0478ms total)
T00C8 000:810 JLINK_WriteReg(R3, 0x00000000)  returns 0x00 (0000ms, 0478ms total)
T00C8 000:810 JLINK_WriteReg(R4, 0x00000000)  returns 0x00 (0000ms, 0478ms total)
T00C8 000:810 JLINK_WriteReg(R5, 0x00000000)  returns 0x00 (0000ms, 0478ms total)
T00C8 000:810 JLINK_WriteReg(R6, 0x00000000)  returns 0x00 (0000ms, 0478ms total)
T00C8 000:810 JLINK_WriteReg(R7, 0x00000000)  returns 0x00 (0000ms, 0478ms total)
T00C8 000:810 JLINK_WriteReg(R8, 0x00000000)  returns 0x00 (0000ms, 0478ms total)
T00C8 000:810 JLINK_WriteReg(R9, 0x20000124)  returns 0x00 (0000ms, 0478ms total)
T00C8 000:810 JLINK_WriteReg(R10, 0x00000000)  returns 0x00 (0000ms, 0478ms total)
T00C8 000:810 JLINK_WriteReg(R11, 0x00000000)  returns 0x00 (0000ms, 0478ms total)
T00C8 000:810 JLINK_WriteReg(R12, 0x00000000)  returns 0x00 (0000ms, 0478ms total)
T00C8 000:810 JLINK_WriteReg(R13, 0x20001000)  returns 0x00 (0000ms, 0478ms total)
T00C8 000:810 JLINK_WriteReg(R14, 0x20000001)  returns 0x00 (0000ms, 0478ms total)
T00C8 000:810 JLINK_WriteReg(R15, 0x20000020)  returns 0x00 (0000ms, 0478ms total)
T00C8 000:810 JLINK_WriteReg(XPSR, 0x01000000)  returns 0x00 (0000ms, 0478ms total)
T00C8 000:810 JLINK_WriteReg(MSP, 0x20001000)  returns 0x00 (0000ms, 0478ms total)
T00C8 000:810 JLINK_WriteReg(PSP, 0x20001000)  returns 0x00 (0000ms, 0478ms total)
T00C8 000:810 JLINK_WriteReg(CFBP, 0x00000000)  returns 0x00 (0000ms, 0478ms total)
T00C8 000:810 JLINK_SetBPEx(Addr = 0x20000000, Type = 0xFFFFFFF2)  returns 0x00000008 (0000ms, 0478ms total)
T00C8 000:810 JLINK_Go() -- CPU_WriteMem(4 bytes @ 0xE0002008) -- CPU_WriteMem(4 bytes @ 0xE000200C) -- CPU_WriteMem(4 bytes @ 0xE0002010) -- CPU_WriteMem(4 bytes @ 0xE0002014) -- CPU_WriteMem(4 bytes @ 0xE0002018) -- CPU_WriteMem(4 bytes @ 0xE000201C) (0003ms, 0481ms total)
T00C8 000:813 JLINK_IsHalted() -- CPU_ReadMem(2 bytes @ 0x20000000)  returns TRUE (0004ms, 0485ms total)
T00C8 000:817 JLINK_ReadReg(R15)  returns 0x20000000 (0000ms, 0481ms total)
T00C8 000:817 JLINK_ClrBPEx(BPHandle = 0x00000008)  returns 0x00 (0000ms, 0481ms total)
T00C8 000:817 JLINK_ReadReg(R0)  returns 0x00000001 (0000ms, 0481ms total)
T00C8 000:817 JLINK_WriteReg(R0, 0x00000C00)  returns 0x00 (0000ms, 0481ms total)
T00C8 000:817 JLINK_WriteReg(R1, 0x00000400)  returns 0x00 (0000ms, 0481ms total)
T00C8 000:817 JLINK_WriteReg(R2, 0x000000FF)  returns 0x00 (0000ms, 0481ms total)
T00C8 000:817 JLINK_WriteReg(R3, 0x00000000)  returns 0x00 (0000ms, 0481ms total)
T00C8 000:817 JLINK_WriteReg(R4, 0x00000000)  returns 0x00 (0000ms, 0481ms total)
T00C8 000:817 JLINK_WriteReg(R5, 0x00000000)  returns 0x00 (0000ms, 0481ms total)
T00C8 000:817 JLINK_WriteReg(R6, 0x00000000)  returns 0x00 (0000ms, 0481ms total)
T00C8 000:817 JLINK_WriteReg(R7, 0x00000000)  returns 0x00 (0000ms, 0481ms total)
T00C8 000:817 JLINK_WriteReg(R8, 0x00000000)  returns 0x00 (0000ms, 0481ms total)
T00C8 000:817 JLINK_WriteReg(R9, 0x20000124)  returns 0x00 (0000ms, 0481ms total)
T00C8 000:817 JLINK_WriteReg(R10, 0x00000000)  returns 0x00 (0000ms, 0481ms total)
T00C8 000:817 JLINK_WriteReg(R11, 0x00000000)  returns 0x00 (0000ms, 0481ms total)
T00C8 000:817 JLINK_WriteReg(R12, 0x00000000)  returns 0x00 (0000ms, 0481ms total)
T00C8 000:817 JLINK_WriteReg(R13, 0x20001000)  returns 0x00 (0000ms, 0481ms total)
T00C8 000:817 JLINK_WriteReg(R14, 0x20000001)  returns 0x00 (0000ms, 0481ms total)
T00C8 000:817 JLINK_WriteReg(R15, 0x20000070)  returns 0x00 (0000ms, 0481ms total)
T00C8 000:817 JLINK_WriteReg(XPSR, 0x01000000)  returns 0x00 (0000ms, 0481ms total)
T00C8 000:817 JLINK_WriteReg(MSP, 0x20001000)  returns 0x00 (0000ms, 0481ms total)
T00C8 000:817 JLINK_WriteReg(PSP, 0x20001000)  returns 0x00 (0000ms, 0481ms total)
T00C8 000:817 JLINK_WriteReg(CFBP, 0x00000000)  returns 0x00 (0000ms, 0481ms total)
T00C8 000:817 JLINK_SetBPEx(Addr = 0x20000000, Type = 0xFFFFFFF2)  returns 0x00000009 (0000ms, 0481ms total)
T00C8 000:817 JLINK_Go() -- CPU_WriteMem(4 bytes @ 0xE0002008) -- CPU_WriteMem(4 bytes @ 0xE000200C) -- CPU_WriteMem(4 bytes @ 0xE0002010) -- CPU_WriteMem(4 bytes @ 0xE0002014) -- CPU_WriteMem(4 bytes @ 0xE0002018) -- CPU_WriteMem(4 bytes @ 0xE000201C) (0003ms, 0484ms total)
T00C8 000:820 JLINK_IsHalted()  returns FALSE (0001ms, 0485ms total)
T00C8 000:825 JLINK_IsHalted()  returns FALSE (0000ms, 0484ms total)
T00C8 000:830 JLINK_IsHalted() -- CPU_ReadMem(2 bytes @ 0x20000000)  returns TRUE (0003ms, 0487ms total)
T00C8 000:833 JLINK_ReadReg(R15)  returns 0x20000000 (0000ms, 0484ms total)
T00C8 000:833 JLINK_ClrBPEx(BPHandle = 0x00000009)  returns 0x00 (0000ms, 0484ms total)
T00C8 000:833 JLINK_ReadReg(R0)  returns 0x00000000 (0000ms, 0484ms total)
T00C8 000:834 JLINK_WriteReg(R0, 0x00001000)  returns 0x00 (0000ms, 0484ms total)
T00C8 000:834 JLINK_WriteReg(R1, 0x00000400)  returns 0x00 (0000ms, 0484ms total)
T00C8 000:834 JLINK_WriteReg(R2, 0x000000FF)  returns 0x00 (0000ms, 0484ms total)
T00C8 000:834 JLINK_WriteReg(R3, 0x00000000)  returns 0x00 (0000ms, 0484ms total)
T00C8 000:834 JLINK_WriteReg(R4, 0x00000000)  returns 0x00 (0000ms, 0484ms total)
T00C8 000:834 JLINK_WriteReg(R5, 0x00000000)  returns 0x00 (0000ms, 0484ms total)
T00C8 000:834 JLINK_WriteReg(R6, 0x00000000)  returns 0x00 (0000ms, 0484ms total)
T00C8 000:834 JLINK_WriteReg(R7, 0x00000000)  returns 0x00 (0000ms, 0484ms total)
T00C8 000:834 JLINK_WriteReg(R8, 0x00000000)  returns 0x00 (0000ms, 0484ms total)
T00C8 000:834 JLINK_WriteReg(R9, 0x20000124)  returns 0x00 (0000ms, 0484ms total)
T00C8 000:834 JLINK_WriteReg(R10, 0x00000000)  returns 0x00 (0000ms, 0484ms total)
T00C8 000:834 JLINK_WriteReg(R11, 0x00000000)  returns 0x00 (0000ms, 0484ms total)
T00C8 000:834 JLINK_WriteReg(R12, 0x00000000)  returns 0x00 (0000ms, 0484ms total)
T00C8 000:834 JLINK_WriteReg(R13, 0x20001000)  returns 0x00 (0000ms, 0484ms total)
T00C8 000:834 JLINK_WriteReg(R14, 0x20000001)  returns 0x00 (0000ms, 0484ms total)
T00C8 000:834 JLINK_WriteReg(R15, 0x20000020)  returns 0x00 (0000ms, 0484ms total)
T00C8 000:834 JLINK_WriteReg(XPSR, 0x01000000)  returns 0x00 (0000ms, 0484ms total)
T00C8 000:834 JLINK_WriteReg(MSP, 0x20001000)  returns 0x00 (0000ms, 0484ms total)
T00C8 000:834 JLINK_WriteReg(PSP, 0x20001000)  returns 0x00 (0000ms, 0484ms total)
T00C8 000:834 JLINK_WriteReg(CFBP, 0x00000000)  returns 0x00 (0001ms, 0485ms total)
T00C8 000:835 JLINK_SetBPEx(Addr = 0x20000000, Type = 0xFFFFFFF2)  returns 0x0000000A (0000ms, 0485ms total)
T00C8 000:835 JLINK_Go() -- CPU_WriteMem(4 bytes @ 0xE0002008) -- CPU_WriteMem(4 bytes @ 0xE000200C) -- CPU_WriteMem(4 bytes @ 0xE0002010) -- CPU_WriteMem(4 bytes @ 0xE0002014) -- CPU_WriteMem(4 bytes @ 0xE0002018) -- CPU_WriteMem(4 bytes @ 0xE000201C) (0003ms, 0488ms total)
T00C8 000:838 JLINK_IsHalted() -- CPU_ReadMem(2 bytes @ 0x20000000)  returns TRUE (0003ms, 0491ms total)
T00C8 000:841 JLINK_ReadReg(R15)  returns 0x20000000 (0000ms, 0488ms total)
T00C8 000:841 JLINK_ClrBPEx(BPHandle = 0x0000000A)  returns 0x00 (0000ms, 0488ms total)
T00C8 000:841 JLINK_ReadReg(R0)  returns 0x00000001 (0000ms, 0488ms total)
T00C8 000:841 JLINK_WriteReg(R0, 0x00001000)  returns 0x00 (0000ms, 0488ms total)
T00C8 000:841 JLINK_WriteReg(R1, 0x00000400)  returns 0x00 (0000ms, 0488ms total)
T00C8 000:841 JLINK_WriteReg(R2, 0x000000FF)  returns 0x00 (0000ms, 0488ms total)
T00C8 000:841 JLINK_WriteReg(R3, 0x00000000)  returns 0x00 (0000ms, 0488ms total)
T00C8 000:841 JLINK_WriteReg(R4, 0x00000000)  returns 0x00 (0000ms, 0488ms total)
T00C8 000:841 JLINK_WriteReg(R5, 0x00000000)  returns 0x00 (0000ms, 0488ms total)
T00C8 000:841 JLINK_WriteReg(R6, 0x00000000)  returns 0x00 (0000ms, 0488ms total)
T00C8 000:841 JLINK_WriteReg(R7, 0x00000000)  returns 0x00 (0000ms, 0488ms total)
T00C8 000:841 JLINK_WriteReg(R8, 0x00000000)  returns 0x00 (0000ms, 0488ms total)
T00C8 000:841 JLINK_WriteReg(R9, 0x20000124)  returns 0x00 (0000ms, 0488ms total)
T00C8 000:841 JLINK_WriteReg(R10, 0x00000000)  returns 0x00 (0000ms, 0488ms total)
T00C8 000:841 JLINK_WriteReg(R11, 0x00000000)  returns 0x00 (0000ms, 0488ms total)
T00C8 000:841 JLINK_WriteReg(R12, 0x00000000)  returns 0x00 (0000ms, 0488ms total)
T00C8 000:841 JLINK_WriteReg(R13, 0x20001000)  returns 0x00 (0000ms, 0488ms total)
T00C8 000:841 JLINK_WriteReg(R14, 0x20000001)  returns 0x00 (0000ms, 0488ms total)
T00C8 000:842 JLINK_WriteReg(R15, 0x20000070)  returns 0x00 (0000ms, 0489ms total)
T00C8 000:842 JLINK_WriteReg(XPSR, 0x01000000)  returns 0x00 (0000ms, 0489ms total)
T00C8 000:842 JLINK_WriteReg(MSP, 0x20001000)  returns 0x00 (0000ms, 0489ms total)
T00C8 000:842 JLINK_WriteReg(PSP, 0x20001000)  returns 0x00 (0000ms, 0489ms total)
T00C8 000:842 JLINK_WriteReg(CFBP, 0x00000000)  returns 0x00 (0000ms, 0489ms total)
T00C8 000:842 JLINK_SetBPEx(Addr = 0x20000000, Type = 0xFFFFFFF2)  returns 0x0000000B (0000ms, 0489ms total)
T00C8 000:842 JLINK_Go() -- CPU_WriteMem(4 bytes @ 0xE0002008) -- CPU_WriteMem(4 bytes @ 0xE000200C) -- CPU_WriteMem(4 bytes @ 0xE0002010) -- CPU_WriteMem(4 bytes @ 0xE0002014) -- CPU_WriteMem(4 bytes @ 0xE0002018) -- CPU_WriteMem(4 bytes @ 0xE000201C) (0003ms, 0492ms total)
T00C8 000:845 JLINK_IsHalted()  returns FALSE (0000ms, 0492ms total)
T00C8 000:847 JLINK_IsHalted()  returns FALSE (0000ms, 0492ms total)
T00C8 000:849 JLINK_IsHalted()  returns FALSE (0000ms, 0492ms total)
T00C8 000:851 JLINK_IsHalted() -- CPU_ReadMem(2 bytes @ 0x20000000)  returns TRUE (0003ms, 0495ms total)
T00C8 000:854 JLINK_ReadReg(R15)  returns 0x20000000 (0000ms, 0492ms total)
T00C8 000:854 JLINK_ClrBPEx(BPHandle = 0x0000000B)  returns 0x00 (0000ms, 0492ms total)
T00C8 000:854 JLINK_ReadReg(R0)  returns 0x00000000 (0000ms, 0492ms total)
T00C8 000:855 JLINK_WriteReg(R0, 0x00001400)  returns 0x00 (0000ms, 0492ms total)
T00C8 000:855 JLINK_WriteReg(R1, 0x00000400)  returns 0x00 (0000ms, 0492ms total)
T00C8 000:855 JLINK_WriteReg(R2, 0x000000FF)  returns 0x00 (0000ms, 0492ms total)
T00C8 000:855 JLINK_WriteReg(R3, 0x00000000)  returns 0x00 (0000ms, 0492ms total)
T00C8 000:855 JLINK_WriteReg(R4, 0x00000000)  returns 0x00 (0000ms, 0492ms total)
T00C8 000:855 JLINK_WriteReg(R5, 0x00000000)  returns 0x00 (0000ms, 0492ms total)
T00C8 000:855 JLINK_WriteReg(R6, 0x00000000)  returns 0x00 (0000ms, 0492ms total)
T00C8 000:855 JLINK_WriteReg(R7, 0x00000000)  returns 0x00 (0000ms, 0492ms total)
T00C8 000:855 JLINK_WriteReg(R8, 0x00000000)  returns 0x00 (0000ms, 0492ms total)
T00C8 000:855 JLINK_WriteReg(R9, 0x20000124)  returns 0x00 (0000ms, 0492ms total)
T00C8 000:855 JLINK_WriteReg(R10, 0x00000000)  returns 0x00 (0000ms, 0492ms total)
T00C8 000:855 JLINK_WriteReg(R11, 0x00000000)  returns 0x00 (0000ms, 0492ms total)
T00C8 000:855 JLINK_WriteReg(R12, 0x00000000)  returns 0x00 (0000ms, 0492ms total)
T00C8 000:855 JLINK_WriteReg(R13, 0x20001000)  returns 0x00 (0000ms, 0492ms total)
T00C8 000:855 JLINK_WriteReg(R14, 0x20000001)  returns 0x00 (0000ms, 0492ms total)
T00C8 000:855 JLINK_WriteReg(R15, 0x20000020)  returns 0x00 (0000ms, 0492ms total)
T00C8 000:855 JLINK_WriteReg(XPSR, 0x01000000)  returns 0x00 (0000ms, 0492ms total)
T00C8 000:855 JLINK_WriteReg(MSP, 0x20001000)  returns 0x00 (0000ms, 0492ms total)
T00C8 000:855 JLINK_WriteReg(PSP, 0x20001000)  returns 0x00 (0000ms, 0492ms total)
T00C8 000:855 JLINK_WriteReg(CFBP, 0x00000000)  returns 0x00 (0000ms, 0492ms total)
T00C8 000:856 JLINK_SetBPEx(Addr = 0x20000000, Type = 0xFFFFFFF2)  returns 0x0000000C (0000ms, 0493ms total)
T00C8 000:856 JLINK_Go() -- CPU_WriteMem(4 bytes @ 0xE0002008) -- CPU_WriteMem(4 bytes @ 0xE000200C) -- CPU_WriteMem(4 bytes @ 0xE0002010) -- CPU_WriteMem(4 bytes @ 0xE0002014) -- CPU_WriteMem(4 bytes @ 0xE0002018) -- CPU_WriteMem(4 bytes @ 0xE000201C) (0003ms, 0496ms total)
T00C8 000:859 JLINK_IsHalted() -- CPU_ReadMem(2 bytes @ 0x20000000)  returns TRUE (0003ms, 0499ms total)
T00C8 000:862 JLINK_ReadReg(R15)  returns 0x20000000 (0000ms, 0496ms total)
T00C8 000:862 JLINK_ClrBPEx(BPHandle = 0x0000000C)  returns 0x00 (0000ms, 0496ms total)
T00C8 000:862 JLINK_ReadReg(R0)  returns 0x00000001 (0000ms, 0496ms total)
T00C8 000:862 JLINK_WriteReg(R0, 0x00001400)  returns 0x00 (0000ms, 0496ms total)
T00C8 000:862 JLINK_WriteReg(R1, 0x00000400)  returns 0x00 (0000ms, 0496ms total)
T00C8 000:862 JLINK_WriteReg(R2, 0x000000FF)  returns 0x00 (0000ms, 0496ms total)
T00C8 000:862 JLINK_WriteReg(R3, 0x00000000)  returns 0x00 (0000ms, 0496ms total)
T00C8 000:862 JLINK_WriteReg(R4, 0x00000000)  returns 0x00 (0000ms, 0496ms total)
T00C8 000:862 JLINK_WriteReg(R5, 0x00000000)  returns 0x00 (0000ms, 0496ms total)
T00C8 000:862 JLINK_WriteReg(R6, 0x00000000)  returns 0x00 (0000ms, 0496ms total)
T00C8 000:862 JLINK_WriteReg(R7, 0x00000000)  returns 0x00 (0001ms, 0497ms total)
T00C8 000:863 JLINK_WriteReg(R8, 0x00000000)  returns 0x00 (0000ms, 0497ms total)
T00C8 000:863 JLINK_WriteReg(R9, 0x20000124)  returns 0x00 (0000ms, 0497ms total)
T00C8 000:863 JLINK_WriteReg(R10, 0x00000000)  returns 0x00 (0000ms, 0497ms total)
T00C8 000:863 JLINK_WriteReg(R11, 0x00000000)  returns 0x00 (0000ms, 0497ms total)
T00C8 000:863 JLINK_WriteReg(R12, 0x00000000)  returns 0x00 (0000ms, 0497ms total)
T00C8 000:863 JLINK_WriteReg(R13, 0x20001000)  returns 0x00 (0000ms, 0497ms total)
T00C8 000:863 JLINK_WriteReg(R14, 0x20000001)  returns 0x00 (0000ms, 0497ms total)
T00C8 000:863 JLINK_WriteReg(R15, 0x20000070)  returns 0x00 (0000ms, 0497ms total)
T00C8 000:863 JLINK_WriteReg(XPSR, 0x01000000)  returns 0x00 (0000ms, 0497ms total)
T00C8 000:863 JLINK_WriteReg(MSP, 0x20001000)  returns 0x00 (0000ms, 0497ms total)
T00C8 000:863 JLINK_WriteReg(PSP, 0x20001000)  returns 0x00 (0000ms, 0497ms total)
T00C8 000:863 JLINK_WriteReg(CFBP, 0x00000000)  returns 0x00 (0000ms, 0497ms total)
T00C8 000:863 JLINK_SetBPEx(Addr = 0x20000000, Type = 0xFFFFFFF2)  returns 0x0000000D (0000ms, 0497ms total)
T00C8 000:863 JLINK_Go() -- CPU_WriteMem(4 bytes @ 0xE0002008) -- CPU_WriteMem(4 bytes @ 0xE000200C) -- CPU_WriteMem(4 bytes @ 0xE0002010) -- CPU_WriteMem(4 bytes @ 0xE0002014) -- CPU_WriteMem(4 bytes @ 0xE0002018) -- CPU_WriteMem(4 bytes @ 0xE000201C) (0004ms, 0501ms total)
T00C8 000:867 JLINK_IsHalted()  returns FALSE (0000ms, 0501ms total)
T00C8 000:868 JLINK_IsHalted()  returns FALSE (0000ms, 0501ms total)
T00C8 000:870 JLINK_IsHalted()  returns FALSE (0000ms, 0501ms total)
T00C8 000:872 JLINK_IsHalted()  returns FALSE (0000ms, 0501ms total)
T00C8 000:874 JLINK_IsHalted() -- CPU_ReadMem(2 bytes @ 0x20000000)  returns TRUE (0003ms, 0504ms total)
T00C8 000:877 JLINK_ReadReg(R15)  returns 0x20000000 (0000ms, 0501ms total)
T00C8 000:877 JLINK_ClrBPEx(BPHandle = 0x0000000D)  returns 0x00 (0000ms, 0501ms total)
T00C8 000:877 JLINK_ReadReg(R0)  returns 0x00000000 (0000ms, 0501ms total)
T00C8 000:878 JLINK_WriteReg(R0, 0x00001800)  returns 0x00 (0000ms, 0501ms total)
T00C8 000:878 JLINK_WriteReg(R1, 0x00000400)  returns 0x00 (0000ms, 0501ms total)
T00C8 000:878 JLINK_WriteReg(R2, 0x000000FF)  returns 0x00 (0000ms, 0501ms total)
T00C8 000:878 JLINK_WriteReg(R3, 0x00000000)  returns 0x00 (0000ms, 0501ms total)
T00C8 000:878 JLINK_WriteReg(R4, 0x00000000)  returns 0x00 (0000ms, 0501ms total)
T00C8 000:878 JLINK_WriteReg(R5, 0x00000000)  returns 0x00 (0000ms, 0501ms total)
T00C8 000:878 JLINK_WriteReg(R6, 0x00000000)  returns 0x00 (0000ms, 0501ms total)
T00C8 000:878 JLINK_WriteReg(R7, 0x00000000)  returns 0x00 (0000ms, 0501ms total)
T00C8 000:878 JLINK_WriteReg(R8, 0x00000000)  returns 0x00 (0000ms, 0501ms total)
T00C8 000:878 JLINK_WriteReg(R9, 0x20000124)  returns 0x00 (0000ms, 0501ms total)
T00C8 000:878 JLINK_WriteReg(R10, 0x00000000)  returns 0x00 (0000ms, 0501ms total)
T00C8 000:878 JLINK_WriteReg(R11, 0x00000000)  returns 0x00 (0000ms, 0501ms total)
T00C8 000:878 JLINK_WriteReg(R12, 0x00000000)  returns 0x00 (0000ms, 0501ms total)
T00C8 000:878 JLINK_WriteReg(R13, 0x20001000)  returns 0x00 (0000ms, 0501ms total)
T00C8 000:878 JLINK_WriteReg(R14, 0x20000001)  returns 0x00 (0000ms, 0501ms total)
T00C8 000:878 JLINK_WriteReg(R15, 0x20000020)  returns 0x00 (0000ms, 0501ms total)
T00C8 000:878 JLINK_WriteReg(XPSR, 0x01000000)  returns 0x00 (0000ms, 0501ms total)
T00C8 000:878 JLINK_WriteReg(MSP, 0x20001000)  returns 0x00 (0000ms, 0501ms total)
T00C8 000:878 JLINK_WriteReg(PSP, 0x20001000)  returns 0x00 (0000ms, 0501ms total)
T00C8 000:878 JLINK_WriteReg(CFBP, 0x00000000)  returns 0x00 (0000ms, 0501ms total)
T00C8 000:878 JLINK_SetBPEx(Addr = 0x20000000, Type = 0xFFFFFFF2)  returns 0x0000000E (0001ms, 0502ms total)
T00C8 000:879 JLINK_Go() -- CPU_WriteMem(4 bytes @ 0xE0002008) -- CPU_WriteMem(4 bytes @ 0xE000200C) -- CPU_WriteMem(4 bytes @ 0xE0002010) -- CPU_WriteMem(4 bytes @ 0xE0002014) -- CPU_WriteMem(4 bytes @ 0xE0002018) -- CPU_WriteMem(4 bytes @ 0xE000201C) (0003ms, 0505ms total)
T00C8 000:882 JLINK_IsHalted() -- CPU_ReadMem(2 bytes @ 0x20000000)  returns TRUE (0003ms, 0508ms total)
T00C8 000:885 JLINK_ReadReg(R15)  returns 0x20000000 (0000ms, 0505ms total)
T00C8 000:885 JLINK_ClrBPEx(BPHandle = 0x0000000E)  returns 0x00 (0000ms, 0505ms total)
T00C8 000:885 JLINK_ReadReg(R0)  returns 0x00000001 (0000ms, 0505ms total)
T00C8 000:885 JLINK_WriteReg(R0, 0x00001800)  returns 0x00 (0000ms, 0505ms total)
T00C8 000:885 JLINK_WriteReg(R1, 0x00000400)  returns 0x00 (0000ms, 0505ms total)
T00C8 000:885 JLINK_WriteReg(R2, 0x000000FF)  returns 0x00 (0000ms, 0505ms total)
T00C8 000:885 JLINK_WriteReg(R3, 0x00000000)  returns 0x00 (0000ms, 0505ms total)
T00C8 000:885 JLINK_WriteReg(R4, 0x00000000)  returns 0x00 (0000ms, 0505ms total)
T00C8 000:885 JLINK_WriteReg(R5, 0x00000000)  returns 0x00 (0000ms, 0505ms total)
T00C8 000:885 JLINK_WriteReg(R6, 0x00000000)  returns 0x00 (0000ms, 0505ms total)
T00C8 000:885 JLINK_WriteReg(R7, 0x00000000)  returns 0x00 (0001ms, 0506ms total)
T00C8 000:886 JLINK_WriteReg(R8, 0x00000000)  returns 0x00 (0000ms, 0506ms total)
T00C8 000:886 JLINK_WriteReg(R9, 0x20000124)  returns 0x00 (0000ms, 0506ms total)
T00C8 000:886 JLINK_WriteReg(R10, 0x00000000)  returns 0x00 (0000ms, 0506ms total)
T00C8 000:886 JLINK_WriteReg(R11, 0x00000000)  returns 0x00 (0000ms, 0506ms total)
T00C8 000:886 JLINK_WriteReg(R12, 0x00000000)  returns 0x00 (0000ms, 0506ms total)
T00C8 000:886 JLINK_WriteReg(R13, 0x20001000)  returns 0x00 (0000ms, 0506ms total)
T00C8 000:886 JLINK_WriteReg(R14, 0x20000001)  returns 0x00 (0000ms, 0506ms total)
T00C8 000:886 JLINK_WriteReg(R15, 0x20000070)  returns 0x00 (0000ms, 0506ms total)
T00C8 000:886 JLINK_WriteReg(XPSR, 0x01000000)  returns 0x00 (0000ms, 0506ms total)
T00C8 000:886 JLINK_WriteReg(MSP, 0x20001000)  returns 0x00 (0000ms, 0506ms total)
T00C8 000:886 JLINK_WriteReg(PSP, 0x20001000)  returns 0x00 (0000ms, 0506ms total)
T00C8 000:886 JLINK_WriteReg(CFBP, 0x00000000)  returns 0x00 (0000ms, 0506ms total)
T00C8 000:886 JLINK_SetBPEx(Addr = 0x20000000, Type = 0xFFFFFFF2)  returns 0x0000000F (0000ms, 0506ms total)
T00C8 000:886 JLINK_Go() -- CPU_WriteMem(4 bytes @ 0xE0002008) -- CPU_WriteMem(4 bytes @ 0xE000200C) -- CPU_WriteMem(4 bytes @ 0xE0002010) -- CPU_WriteMem(4 bytes @ 0xE0002014) -- CPU_WriteMem(4 bytes @ 0xE0002018) -- CPU_WriteMem(4 bytes @ 0xE000201C) (0003ms, 0509ms total)
T00C8 000:889 JLINK_IsHalted()  returns FALSE (0000ms, 0509ms total)
T00C8 000:891 JLINK_IsHalted()  returns FALSE (0000ms, 0509ms total)
T00C8 000:893 JLINK_IsHalted()  returns FALSE (0000ms, 0509ms total)
T00C8 000:895 JLINK_IsHalted()  returns FALSE (0000ms, 0509ms total)
T00C8 000:897 JLINK_IsHalted() -- CPU_ReadMem(2 bytes @ 0x20000000)  returns TRUE (0003ms, 0512ms total)
T00C8 000:900 JLINK_ReadReg(R15)  returns 0x20000000 (0000ms, 0509ms total)
T00C8 000:900 JLINK_ClrBPEx(BPHandle = 0x0000000F)  returns 0x00 (0000ms, 0509ms total)
T00C8 000:900 JLINK_ReadReg(R0)  returns 0x00000000 (0000ms, 0509ms total)
T00C8 000:901 JLINK_WriteReg(R0, 0x00001C00)  returns 0x00 (0000ms, 0509ms total)
T00C8 000:901 JLINK_WriteReg(R1, 0x00000400)  returns 0x00 (0000ms, 0509ms total)
T00C8 000:901 JLINK_WriteReg(R2, 0x000000FF)  returns 0x00 (0000ms, 0509ms total)
T00C8 000:901 JLINK_WriteReg(R3, 0x00000000)  returns 0x00 (0000ms, 0509ms total)
T00C8 000:901 JLINK_WriteReg(R4, 0x00000000)  returns 0x00 (0000ms, 0509ms total)
T00C8 000:901 JLINK_WriteReg(R5, 0x00000000)  returns 0x00 (0000ms, 0509ms total)
T00C8 000:901 JLINK_WriteReg(R6, 0x00000000)  returns 0x00 (0000ms, 0509ms total)
T00C8 000:901 JLINK_WriteReg(R7, 0x00000000)  returns 0x00 (0000ms, 0509ms total)
T00C8 000:901 JLINK_WriteReg(R8, 0x00000000)  returns 0x00 (0000ms, 0509ms total)
T00C8 000:901 JLINK_WriteReg(R9, 0x20000124)  returns 0x00 (0000ms, 0509ms total)
T00C8 000:901 JLINK_WriteReg(R10, 0x00000000)  returns 0x00 (0000ms, 0509ms total)
T00C8 000:901 JLINK_WriteReg(R11, 0x00000000)  returns 0x00 (0000ms, 0509ms total)
T00C8 000:901 JLINK_WriteReg(R12, 0x00000000)  returns 0x00 (0000ms, 0509ms total)
T00C8 000:901 JLINK_WriteReg(R13, 0x20001000)  returns 0x00 (0000ms, 0509ms total)
T00C8 000:901 JLINK_WriteReg(R14, 0x20000001)  returns 0x00 (0000ms, 0509ms total)
T00C8 000:901 JLINK_WriteReg(R15, 0x20000020)  returns 0x00 (0000ms, 0509ms total)
T00C8 000:901 JLINK_WriteReg(XPSR, 0x01000000)  returns 0x00 (0000ms, 0509ms total)
T00C8 000:901 JLINK_WriteReg(MSP, 0x20001000)  returns 0x00 (0000ms, 0509ms total)
T00C8 000:901 JLINK_WriteReg(PSP, 0x20001000)  returns 0x00 (0000ms, 0509ms total)
T00C8 000:901 JLINK_WriteReg(CFBP, 0x00000000)  returns 0x00 (0000ms, 0509ms total)
T00C8 000:901 JLINK_SetBPEx(Addr = 0x20000000, Type = 0xFFFFFFF2)  returns 0x00000010 (0000ms, 0509ms total)
T00C8 000:901 JLINK_Go() -- CPU_WriteMem(4 bytes @ 0xE0002008) -- CPU_WriteMem(4 bytes @ 0xE000200C) -- CPU_WriteMem(4 bytes @ 0xE0002010) -- CPU_WriteMem(4 bytes @ 0xE0002014) -- CPU_WriteMem(4 bytes @ 0xE0002018) -- CPU_WriteMem(4 bytes @ 0xE000201C) (0004ms, 0513ms total)
T00C8 000:905 JLINK_IsHalted() -- CPU_ReadMem(2 bytes @ 0x20000000)  returns TRUE (0004ms, 0517ms total)
T00C8 000:909 JLINK_ReadReg(R15)  returns 0x20000000 (0000ms, 0513ms total)
T00C8 000:909 JLINK_ClrBPEx(BPHandle = 0x00000010)  returns 0x00 (0000ms, 0513ms total)
T00C8 000:909 JLINK_ReadReg(R0)  returns 0x00000001 (0000ms, 0513ms total)
T00C8 000:909 JLINK_WriteReg(R0, 0x00001C00)  returns 0x00 (0000ms, 0513ms total)
T00C8 000:909 JLINK_WriteReg(R1, 0x00000400)  returns 0x00 (0000ms, 0513ms total)
T00C8 000:909 JLINK_WriteReg(R2, 0x000000FF)  returns 0x00 (0000ms, 0513ms total)
T00C8 000:909 JLINK_WriteReg(R3, 0x00000000)  returns 0x00 (0000ms, 0513ms total)
T00C8 000:909 JLINK_WriteReg(R4, 0x00000000)  returns 0x00 (0000ms, 0513ms total)
T00C8 000:909 JLINK_WriteReg(R5, 0x00000000)  returns 0x00 (0000ms, 0513ms total)
T00C8 000:909 JLINK_WriteReg(R6, 0x00000000)  returns 0x00 (0000ms, 0513ms total)
T00C8 000:909 JLINK_WriteReg(R7, 0x00000000)  returns 0x00 (0000ms, 0513ms total)
T00C8 000:909 JLINK_WriteReg(R8, 0x00000000)  returns 0x00 (0000ms, 0513ms total)
T00C8 000:909 JLINK_WriteReg(R9, 0x20000124)  returns 0x00 (0000ms, 0513ms total)
T00C8 000:909 JLINK_WriteReg(R10, 0x00000000)  returns 0x00 (0000ms, 0513ms total)
T00C8 000:909 JLINK_WriteReg(R11, 0x00000000)  returns 0x00 (0000ms, 0513ms total)
T00C8 000:909 JLINK_WriteReg(R12, 0x00000000)  returns 0x00 (0000ms, 0513ms total)
T00C8 000:909 JLINK_WriteReg(R13, 0x20001000)  returns 0x00 (0000ms, 0513ms total)
T00C8 000:909 JLINK_WriteReg(R14, 0x20000001)  returns 0x00 (0001ms, 0514ms total)
T00C8 000:910 JLINK_WriteReg(R15, 0x20000070)  returns 0x00 (0000ms, 0514ms total)
T00C8 000:910 JLINK_WriteReg(XPSR, 0x01000000)  returns 0x00 (0000ms, 0514ms total)
T00C8 000:910 JLINK_WriteReg(MSP, 0x20001000)  returns 0x00 (0000ms, 0514ms total)
T00C8 000:910 JLINK_WriteReg(PSP, 0x20001000)  returns 0x00 (0000ms, 0514ms total)
T00C8 000:910 JLINK_WriteReg(CFBP, 0x00000000)  returns 0x00 (0000ms, 0514ms total)
T00C8 000:910 JLINK_SetBPEx(Addr = 0x20000000, Type = 0xFFFFFFF2)  returns 0x00000011 (0000ms, 0514ms total)
T00C8 000:910 JLINK_Go() -- CPU_WriteMem(4 bytes @ 0xE0002008) -- CPU_WriteMem(4 bytes @ 0xE000200C) -- CPU_WriteMem(4 bytes @ 0xE0002010) -- CPU_WriteMem(4 bytes @ 0xE0002014) -- CPU_WriteMem(4 bytes @ 0xE0002018) -- CPU_WriteMem(4 bytes @ 0xE000201C) (0004ms, 0518ms total)
T00C8 000:914 JLINK_IsHalted()  returns FALSE (0000ms, 0518ms total)
T00C8 000:917 JLINK_IsHalted()  returns FALSE (0000ms, 0518ms total)
T00C8 000:919 JLINK_IsHalted()  returns FALSE (0000ms, 0518ms total)
T00C8 000:921 JLINK_IsHalted() -- CPU_ReadMem(2 bytes @ 0x20000000)  returns TRUE (0003ms, 0521ms total)
T00C8 000:924 JLINK_ReadReg(R15)  returns 0x20000000 (0000ms, 0518ms total)
T00C8 000:924 JLINK_ClrBPEx(BPHandle = 0x00000011)  returns 0x00 (0000ms, 0518ms total)
T00C8 000:924 JLINK_ReadReg(R0)  returns 0x00000000 (0000ms, 0518ms total)
T00C8 000:926 JLINK_WriteReg(R0, 0x00002000)  returns 0x00 (0000ms, 0518ms total)
T00C8 000:926 JLINK_WriteReg(R1, 0x00000400)  returns 0x00 (0000ms, 0518ms total)
T00C8 000:926 JLINK_WriteReg(R2, 0x000000FF)  returns 0x00 (0000ms, 0518ms total)
